T35D8 6066:064 SEGGER J-Link V4.90 Log File (0001ms, 8934ms total)
T35D8 6066:064 DLL Compiled: Jul 28 2014 10:35:20 (0001ms, 8934ms total)
T35D8 6066:064 Logging started @ 2019-04-07 17:07 (0001ms, 8934ms total)
T35D8 6066:065 JLINK_SetWarnOutHandler(...) (0000ms, 8934ms total)
T35D8 6066:065 JLINK_OpenEx(...)
Firmware: J-Link ARM-OB STM32 compiled Aug 22 2012 19:52:04
Hardware: V7.00
S/N: 20090928
Feature(s): RDI,FlashDL,FlashBP,JFlash,GDBFullDevice "UNSPECIFIED" selected (0 KB flash, 0 KB RAM).  returns O.K. (0299ms, 9233ms total)
T35D8 6066:365 JLINK_GetEmuCaps()  returns 0x88EA5833 (0000ms, 9233ms total)
T35D8 6066:366 JLINK_TIF_GetAvailable(...) (0001ms, 9234ms total)
T35D8 6066:367 JLINK_SetErrorOutHandler(...) (0000ms, 9234ms total)
T35D8 6066:367 JLINK_ExecCommand("ProjectFile = "D:\毕业设计\代码\毕业设计程序beta\Project\MDK-ARM(uV4)\JLinkSettings.ini"", ...)Device "UNSPECIFIED" selected (0 KB flash, 0 KB RAM).  returns 0x00 (0050ms, 9284ms total)
T35D8 6066:458 JLINK_ExecCommand("Device = STM32F427VITx", ...)Device "UNSPECIFIED" selected (0 KB flash, 0 KB RAM).  returns 0x00 (0014ms, 9298ms total)
T35D8 6066:472 JLINK_ExecCommand("DisableConnectionTimeout", ...)  returns 0x01 (0000ms, 9298ms total)
T35D8 6066:472 JLINK_GetHardwareVersion()  returns 0x11170 (0000ms, 9298ms total)
T35D8 6066:472 JLINK_GetDLLVersion()  returns 49000 (0000ms, 9298ms total)
T35D8 6066:472 JLINK_GetFirmwareString(...) (0000ms, 9298ms total)
T35D8 6066:503 JLINK_GetDLLVersion()  returns 49000 (0000ms, 9298ms total)
T35D8 6066:503 JLINK_GetCompileDateTime() (0000ms, 9298ms total)
T35D8 6066:509 JLINK_GetFirmwareString(...) (0000ms, 9298ms total)
T35D8 6066:515 JLINK_GetHardwareVersion()  returns 0x11170 (0000ms, 9298ms total)
T35D8 6066:544 JLINK_TIF_Select(JLINKARM_TIF_SWD)  returns 0x00 (0003ms, 9301ms total)
T35D8 6066:547 JLINK_SetSpeed(1000) (0000ms, 9301ms total)
T35D8 6066:547 JLINK_GetId() >0x108 TIF>Found SWD-DP with ID 0x2BA01477 >0x0D TIF> >0x21 TIF> >0x0D TIF> >0x28 TIF> >0x0D TIF> >0x28 TIF> >0x0D TIF> >0x21 TIF> >0x0D TIF> >0x28 TIF> >0x0D TIF> >0x21 TIF> >0x0D TIF> >0x21 TIF> >0x0D TIF> >0x21 TIF> >0x0D TIF> >0x21 TIF> >0x0D TIF> >0x28 TIF> >0x0D TIF> >0x28 TIF> >0x0D TIF> >0x21 TIF> >0x0D TIF> >0x28 TIF> >0x0D TIF> >0x28 TIF> >0x0D TIF> >0x28 TIF> >0x0D TIF> >0x21 TIF> >0x0D TIF> >0x21 TIF> >0x0D TIF> >0x28 TIF> >0x0D TIF> >0x21 TIF> >0x0D TIF>
 >0x21 TIF>Found Cortex-M4 r0p1, Little endian. -- CPU_WriteMem(4 bytes @ 0xE0002000) -- CPU_ReadMem(4 bytes @ 0xE000EDF0) -- CPU_ReadMem(4 bytes @ 0xE0002000)FPUnit: 6 code (BP) slots and 2 literal slots -- CPU_ReadMem(4 bytes @ 0xE000EDFC) -- CPU_ReadMem(4 bytes @ 0xE0001000) -- CPU_WriteMem(4 bytes @ 0xE0001000) -- CPU_ReadMem(4 bytes @ 0xE00FF010)TPIU fitted. -- CPU_ReadMem(4 bytes @ 0xE00FF014)ETM fitted. -- CPU_ReadMem(4 bytes @ 0xE00FF018) >0x0D TIF> >0x21 TIF>  returns 0x2BA01477
 (0087ms, 9388ms total)
T35D8 6066:634 JLINK_GetDLLVersion()  returns 49000 (0000ms, 9388ms total)
T35D8 6066:634 JLINK_CORE_GetFound()  returns 0xE0000FF (0001ms, 9389ms total)
T35D8 6066:640 JLINK_GetDebugInfo(0x100) -- Value=0xE00FF003  returns 0x00 (0000ms, 9389ms total)
T35D8 6066:640 JLINK_GetDebugInfo(0x101)  returns 0xFFFFFFFF (0000ms, 9389ms total)
T35D8 6066:640 JLINK_ReadMemEx(0xE0041FF0, 0x0010 Bytes, ..., AccessWidth = 33554436) -- CPU is running -- CPU_ReadMem(16 bytes @ 0xE0041FF0) - Data: 0D 00 00 00 90 00 00 00 05 00 00 00 B1 00 00 00  returns 0x10 (0002ms, 9391ms total)
T35D8 6066:642 JLINK_GetDebugInfo(0x102)  returns 0xFFFFFFFF (0000ms, 9391ms total)
T35D8 6066:643 JLINK_GetDebugInfo(0x103)  returns 0xFFFFFFFF (0000ms, 9392ms total)
T35D8 6066:643 JLINK_ReadMemEx(0xE0040FF0, 0x0010 Bytes, ..., AccessWidth = 33554436) -- CPU is running -- CPU_ReadMem(16 bytes @ 0xE0040FF0) - Data: 0D 00 00 00 90 00 00 00 05 00 00 00 B1 00 00 00  returns 0x10 (0002ms, 9394ms total)
T35D8 6066:645 JLINK_GetDebugInfo(0x104)  returns 0xFFFFFFFF (0000ms, 9394ms total)
T35D8 6066:645 JLINK_GetDebugInfo(0x105)  returns 0xFFFFFFFF (0000ms, 9394ms total)
T35D8 6066:645 JLINK_GetDebugInfo(0x106)  returns 0xFFFFFFFF (0000ms, 9394ms total)
T35D8 6066:645 JLINK_GetDebugInfo(0x107)  returns 0xFFFFFFFF (0000ms, 9394ms total)
T35D8 6066:645 JLINK_GetDebugInfo(0x10C)  returns 0xFFFFFFFF (0000ms, 9394ms total)
T35D8 6066:645 JLINK_GetDebugInfo(0x01)  returns 0xFFFFFFFF (0000ms, 9394ms total)
T35D8 6066:645 JLINK_GetDeviceFamily()  returns 14 (0000ms, 9394ms total)
T35D8 6066:645 JLINK_ReadMemU32(0xE000ED00, 0x0001 Items, ...) -- CPU is running -- CPU_ReadMem(4 bytes @ 0xE000ED00) - Data: 41 C2 0F 41  returns 0x01 (0002ms, 9396ms total)
T35D8 6066:647 JLINK_GetDebugInfo(0x10F)  returns 0xFFFFFFFF (0000ms, 9396ms total)
T35D8 6066:647 JLINK_SetResetType(JLINKARM_RESET_TYPE_NORMAL)  returns JLINKARM_RESET_TYPE_NORMAL (0000ms, 9396ms total)
T35D8 6066:647 JLINK_Reset() -- CPU is running -- CPU_WriteMem(4 bytes @ 0xE000EDF0) -- CPU is running -- CPU_WriteMem(4 bytes @ 0xE000EDFC) >0x35 TIF> -- CPU is running -- CPU_WriteMem(4 bytes @ 0xE000ED0C) -- CPU is running -- CPU_ReadMem(4 bytes @ 0xE000EDF0) -- CPU is running -- CPU_ReadMem(4 bytes @ 0xE000EDF0) -- CPU is running -- CPU_WriteMem(4 bytes @ 0xE000EDF0) -- CPU is running -- CPU_WriteMem(4 bytes @ 0xE000EDFC) -- CPU is running -- CPU_ReadMem(4 bytes @ 0xE000EDF0)
 -- CPU_WriteMem(4 bytes @ 0xE0002000) -- CPU_ReadMem(4 bytes @ 0xE000EDFC) -- CPU_ReadMem(4 bytes @ 0xE0001000) (0039ms, 9435ms total)
T35D8 6066:686 JLINK_Halt()  returns 0x00 (0000ms, 9435ms total)
T35D8 6066:686 JLINK_ReadMemU32(0xE000EDF0, 0x0001 Items, ...) -- CPU_ReadMem(4 bytes @ 0xE000EDF0) - Data: 03 00 03 00  returns 0x01 (0002ms, 9437ms total)
T35D8 6066:688 JLINK_WriteU32(0xE000EDF0, 0xA05F0003) -- CPU_WriteMem(4 bytes @ 0xE000EDF0)  returns 0x00 (0001ms, 9438ms total)
T35D8 6066:689 JLINK_WriteU32(0xE000EDFC, 0x01000000) -- CPU_WriteMem(4 bytes @ 0xE000EDFC)  returns 0x00 (0002ms, 9440ms total)
T35D8 6066:711 JLINK_GetHWStatus(...)  returns 0x00 (0001ms, 9441ms total)
T35D8 6066:733 JLINK_GetNumBPUnits(Type = 0xFFFFFF00)  returns 0x06 (0000ms, 9441ms total)
T35D8 6066:733 JLINK_GetNumBPUnits(Type = 0xF0)  returns 0x2000 (0000ms, 9441ms total)
T35D8 6066:733 JLINK_GetNumWPUnits()  returns 0x04 (0000ms, 9441ms total)
T35D8 6066:749 JLINK_GetSpeed()  returns 0x3E8 (0000ms, 9441ms total)
T35D8 6066:762 JLINK_ReadMemU32(0xE000E004, 0x0001 Items, ...) -- CPU_ReadMem(4 bytes @ 0xE000E004) - Data: 02 00 00 00  returns 0x01 (0002ms, 9443ms total)
T35D8 6066:764 JLINK_ReadMemU32(0xE000E004, 0x0001 Items, ...) -- CPU_ReadMem(4 bytes @ 0xE000E004) - Data: 02 00 00 00  returns 0x01 (0002ms, 9445ms total)
T35D8 6066:766 JLINK_WriteMemEx(0xE0001000, 0x001C Bytes, ..., AccessWidth = 33554436) - Data: 01 00 00 00 00 00 00 00 00 00 00 00 00 00 00 00 ... -- CPU_WriteMem(28 bytes @ 0xE0001000)  returns 0x1C (0002ms, 9447ms total)
T35D8 6066:768 JLINK_Halt()  returns 0x00 (0000ms, 9447ms total)
T35D8 6066:768 JLINK_IsHalted()  returns TRUE (0000ms, 9447ms total)
T35D8 6066:774 JLINK_WriteMem(0x20000000, 0x0198 Bytes, ...) - Data: 00 BE 0A E0 0D 78 2D 06 68 40 08 24 40 00 00 D3 ... -- CPU_WriteMem(408 bytes @ 0x20000000)  returns 0x198 (0014ms, 9461ms total)
T35D8 6066:788 JLINK_WriteReg(R0, 0x08000000)  returns 0x00 (0000ms, 9461ms total)
T35D8 6066:788 JLINK_WriteReg(R1, 0x00B71B00)  returns 0x00 (0000ms, 9461ms total)
T35D8 6066:788 JLINK_WriteReg(R2, 0x00000001)  returns 0x00 (0000ms, 9461ms total)
T35D8 6066:789 JLINK_WriteReg(R3, 0x00000000)  returns 0x00 (0000ms, 9462ms total)
T35D8 6066:789 JLINK_WriteReg(R4, 0x00000000)  returns 0x00 (0000ms, 9462ms total)
T35D8 6066:789 JLINK_WriteReg(R5, 0x00000000)  returns 0x00 (0000ms, 9462ms total)
T35D8 6066:789 JLINK_WriteReg(R6, 0x00000000)  returns 0x00 (0000ms, 9462ms total)
T35D8 6066:789 JLINK_WriteReg(R7, 0x00000000)  returns 0x00 (0000ms, 9462ms total)
T35D8 6066:789 JLINK_WriteReg(R8, 0x00000000)  returns 0x00 (0000ms, 9462ms total)
T35D8 6066:789 JLINK_WriteReg(R9, 0x20000194)  returns 0x00 (0000ms, 9462ms total)
T35D8 6066:789 JLINK_WriteReg(R10, 0x00000000)  returns 0x00 (0000ms, 9462ms total)
T35D8 6066:789 JLINK_WriteReg(R11, 0x00000000)  returns 0x00 (0000ms, 9462ms total)
T35D8 6066:789 JLINK_WriteReg(R12, 0x00000000)  returns 0x00 (0000ms, 9462ms total)
T35D8 6066:789 JLINK_WriteReg(R13 (SP), 0x20000800)  returns 0x00 (0000ms, 9462ms total)
T35D8 6066:789 JLINK_WriteReg(R14, 0x20000001)  returns 0x00 (0000ms, 9462ms total)
T35D8 6066:789 JLINK_WriteReg(R15 (PC), 0x2000005E)  returns 0x00 (0000ms, 9462ms total)
T35D8 6066:789 JLINK_WriteReg(XPSR, 0x01000000)  returns 0x00 (0000ms, 9462ms total)
T35D8 6066:789 JLINK_WriteReg(MSP, 0x20000800)  returns 0x00 (0000ms, 9462ms total)
T35D8 6066:789 JLINK_WriteReg(PSP, 0x20000800)  returns 0x00 (0000ms, 9462ms total)
T35D8 6066:789 JLINK_WriteReg(CFBP, 0x00000000)  returns 0x00 (0000ms, 9462ms total)
T35D8 6066:789 JLINK_SetBPEx(Addr = 0x20000000, Type = 0xFFFFFFF2) -- CPU_ReadMem(4 bytes @ 0x20000000) -- CPU_WriteMem(4 bytes @ 0x20000000) -- CPU_ReadMem(4 bytes @ 0x20000000) -- CPU_WriteMem(4 bytes @ 0x20000000) -- CPU_ReadMem(2 bytes @ 0x20000000)  returns 0x00000001 (0008ms, 9470ms total)
T35D8 6066:797 JLINK_Go() -- CPU_WriteMem(2 bytes @ 0x20000000) -- CPU_WriteMem(4 bytes @ 0xE0002008) -- CPU_WriteMem(4 bytes @ 0xE000200C) -- CPU_WriteMem(4 bytes @ 0xE0002010) -- CPU_WriteMem(4 bytes @ 0xE0002014) -- CPU_WriteMem(4 bytes @ 0xE0002018) -- CPU_WriteMem(4 bytes @ 0xE000201C) -- CPU_WriteMem(4 bytes @ 0xE0001004) (0019ms, 9489ms total)
T35D8 6066:816 JLINK_IsHalted() -- CPU_ReadMem(2 bytes @ 0x20000000)  returns TRUE (0011ms, 9500ms total)
T35D8 6066:827 JLINK_ReadReg(R15 (PC))  returns 0x20000000 (0000ms, 9489ms total)
T35D8 6066:827 JLINK_ClrBPEx(BPHandle = 0x00000001)  returns 0x00 (0000ms, 9489ms total)
T35D8 6066:827 JLINK_ReadReg(R0)  returns 0x00000000 (0000ms, 9489ms total)
T35D8 6066:828 JLINK_WriteReg(R0, 0x08000000)  returns 0x00 (0000ms, 9489ms total)
T35D8 6066:828 JLINK_WriteReg(R1, 0x00004000)  returns 0x00 (0000ms, 9489ms total)
T35D8 6066:828 JLINK_WriteReg(R2, 0x000000FF)  returns 0x00 (0000ms, 9489ms total)
T35D8 6066:828 JLINK_WriteReg(R3, 0x00000000)  returns 0x00 (0000ms, 9489ms total)
T35D8 6066:828 JLINK_WriteReg(R4, 0x00000000)  returns 0x00 (0000ms, 9489ms total)
T35D8 6066:828 JLINK_WriteReg(R5, 0x00000000)  returns 0x00 (0000ms, 9489ms total)
T35D8 6066:828 JLINK_WriteReg(R6, 0x00000000)  returns 0x00 (0000ms, 9489ms total)
T35D8 6066:828 JLINK_WriteReg(R7, 0x00000000)  returns 0x00 (0000ms, 9489ms total)
T35D8 6066:828 JLINK_WriteReg(R8, 0x00000000)  returns 0x00 (0000ms, 9489ms total)
T35D8 6066:828 JLINK_WriteReg(R9, 0x20000194)  returns 0x00 (0000ms, 9489ms total)
T35D8 6066:828 JLINK_WriteReg(R10, 0x00000000)  returns 0x00 (0000ms, 9489ms total)
T35D8 6066:828 JLINK_WriteReg(R11, 0x00000000)  returns 0x00 (0000ms, 9489ms total)
T35D8 6066:828 JLINK_WriteReg(R12, 0x00000000)  returns 0x00 (0000ms, 9489ms total)
T35D8 6066:828 JLINK_WriteReg(R13 (SP), 0x20000800)  returns 0x00 (0000ms, 9489ms total)
T35D8 6066:828 JLINK_WriteReg(R14, 0x20000001)  returns 0x00 (0000ms, 9489ms total)
T35D8 6066:828 JLINK_WriteReg(R15 (PC), 0x20000020)  returns 0x00 (0000ms, 9489ms total)
T35D8 6066:828 JLINK_WriteReg(XPSR, 0x01000000)  returns 0x00 (0000ms, 9489ms total)
T35D8 6066:828 JLINK_WriteReg(MSP, 0x20000800)  returns 0x00 (0000ms, 9489ms total)
T35D8 6066:828 JLINK_WriteReg(PSP, 0x20000800)  returns 0x00 (0000ms, 9489ms total)
T35D8 6066:828 JLINK_WriteReg(CFBP, 0x00000000)  returns 0x00 (0000ms, 9489ms total)
T35D8 6066:828 JLINK_SetBPEx(Addr = 0x20000000, Type = 0xFFFFFFF2)  returns 0x00000002 (0000ms, 9489ms total)
T35D8 6066:829 JLINK_Go() (0004ms, 9494ms total)
T35D8 6066:833 JLINK_IsHalted() -- CPU_ReadMem(2 bytes @ 0x20000000)  returns TRUE (0011ms, 9505ms total)
T35D8 6066:844 JLINK_ReadReg(R15 (PC))  returns 0x20000000 (0001ms, 9495ms total)
T35D8 6066:845 JLINK_ClrBPEx(BPHandle = 0x00000002)  returns 0x00 (0000ms, 9495ms total)
T35D8 6066:845 JLINK_ReadReg(R0)  returns 0x00000001 (0000ms, 9495ms total)
T35D8 6066:845 JLINK_WriteReg(R0, 0x08000000)  returns 0x00 (0000ms, 9495ms total)
T35D8 6066:845 JLINK_WriteReg(R1, 0x00004000)  returns 0x00 (0000ms, 9495ms total)
T35D8 6066:845 JLINK_WriteReg(R2, 0x000000FF)  returns 0x00 (0000ms, 9495ms total)
T35D8 6066:845 JLINK_WriteReg(R3, 0x00000000)  returns 0x00 (0000ms, 9495ms total)
T35D8 6066:845 JLINK_WriteReg(R4, 0x00000000)  returns 0x00 (0000ms, 9495ms total)
T35D8 6066:845 JLINK_WriteReg(R5, 0x00000000)  returns 0x00 (0000ms, 9495ms total)
T35D8 6066:845 JLINK_WriteReg(R6, 0x00000000)  returns 0x00 (0000ms, 9495ms total)
T35D8 6066:845 JLINK_WriteReg(R7, 0x00000000)  returns 0x00 (0000ms, 9495ms total)
T35D8 6066:845 JLINK_WriteReg(R8, 0x00000000)  returns 0x00 (0000ms, 9495ms total)
T35D8 6066:845 JLINK_WriteReg(R9, 0x20000194)  returns 0x00 (0000ms, 9495ms total)
T35D8 6066:845 JLINK_WriteReg(R10, 0x00000000)  returns 0x00 (0000ms, 9495ms total)
T35D8 6066:845 JLINK_WriteReg(R11, 0x00000000)  returns 0x00 (0000ms, 9495ms total)
T35D8 6066:845 JLINK_WriteReg(R12, 0x00000000)  returns 0x00 (0000ms, 9495ms total)
T35D8 6066:845 JLINK_WriteReg(R13 (SP), 0x20000800)  returns 0x00 (0000ms, 9495ms total)
T35D8 6066:845 JLINK_WriteReg(R14, 0x20000001)  returns 0x00 (0000ms, 9495ms total)
T35D8 6066:845 JLINK_WriteReg(R15 (PC), 0x200000D4)  returns 0x00 (0000ms, 9495ms total)
T35D8 6066:845 JLINK_WriteReg(XPSR, 0x01000000)  returns 0x00 (0000ms, 9495ms total)
T35D8 6066:845 JLINK_WriteReg(MSP, 0x20000800)  returns 0x00 (0000ms, 9495ms total)
T35D8 6066:845 JLINK_WriteReg(PSP, 0x20000800)  returns 0x00 (0000ms, 9495ms total)
T35D8 6066:845 JLINK_WriteReg(CFBP, 0x00000000)  returns 0x00 (0000ms, 9495ms total)
T35D8 6066:845 JLINK_SetBPEx(Addr = 0x20000000, Type = 0xFFFFFFF2)  returns 0x00000003 (0000ms, 9495ms total)
T35D8 6066:845 JLINK_Go() (0005ms, 9500ms total)
T35D8 6066:850 JLINK_IsHalted()  returns FALSE (0002ms, 9502ms total)
T35D8 6067:057 JLINK_IsHalted()  returns FALSE (0002ms, 9502ms total)
T35D8 6067:061 JLINK_IsHalted()  returns FALSE (0001ms, 9501ms total)
T35D8 6067:067 JLINK_IsHalted()  returns FALSE (0002ms, 9502ms total)
T35D8 6067:071 JLINK_IsHalted()  returns FALSE (0001ms, 9501ms total)
T35D8 6067:074 JLINK_IsHalted()  returns FALSE (0001ms, 9501ms total)
T35D8 6067:077 JLINK_IsHalted()  returns FALSE (0002ms, 9502ms total)
T35D8 6067:080 JLINK_IsHalted()  returns FALSE (0002ms, 9502ms total)
T35D8 6067:085 JLINK_IsHalted()  returns FALSE (0002ms, 9502ms total)
T35D8 6067:089 JLINK_IsHalted()  returns FALSE (0001ms, 9501ms total)
T35D8 6067:092 JLINK_IsHalted()  returns FALSE (0002ms, 9502ms total)
T35D8 6067:105 JLINK_IsHalted()  returns FALSE (0001ms, 9501ms total)
T35D8 6067:108 JLINK_IsHalted()  returns FALSE (0001ms, 9501ms total)
T35D8 6067:114 JLINK_IsHalted()  returns FALSE (0002ms, 9502ms total)
T35D8 6067:117 JLINK_IsHalted()  returns FALSE (0002ms, 9502ms total)
T35D8 6067:121 JLINK_IsHalted()  returns FALSE (0001ms, 9501ms total)
T35D8 6067:126 JLINK_IsHalted()  returns FALSE (0002ms, 9502ms total)
T35D8 6067:130 JLINK_IsHalted()  returns FALSE (0001ms, 9501ms total)
T35D8 6067:133 JLINK_IsHalted()  returns FALSE (0001ms, 9501ms total)
T35D8 6067:136 JLINK_IsHalted()  returns FALSE (0002ms, 9502ms total)
T35D8 6067:140 JLINK_IsHalted()  returns FALSE (0001ms, 9501ms total)
T35D8 6067:153 JLINK_IsHalted()  returns FALSE (0002ms, 9502ms total)
T35D8 6067:157 JLINK_IsHalted()  returns FALSE (0001ms, 9501ms total)
T35D8 6067:160 JLINK_IsHalted()  returns FALSE (0001ms, 9501ms total)
T35D8 6067:166 JLINK_IsHalted()  returns FALSE (0002ms, 9502ms total)
T35D8 6067:169 JLINK_IsHalted()  returns FALSE (0002ms, 9502ms total)
T35D8 6067:174 JLINK_IsHalted()  returns FALSE (0002ms, 9502ms total)
T35D8 6067:177 JLINK_IsHalted()  returns FALSE (0002ms, 9502ms total)
T35D8 6067:180 JLINK_IsHalted()  returns FALSE (0002ms, 9502ms total)
T35D8 6067:184 JLINK_IsHalted()  returns FALSE (0001ms, 9501ms total)
T35D8 6067:194 JLINK_IsHalted()  returns FALSE (0002ms, 9502ms total)
T35D8 6067:198 JLINK_IsHalted() -- CPU_ReadMem(2 bytes @ 0x20000000)  returns TRUE (0011ms, 9511ms total)
T35D8 6067:209 JLINK_ReadReg(R15 (PC))  returns 0x20000000 (0000ms, 9500ms total)
T35D8 6067:209 JLINK_ClrBPEx(BPHandle = 0x00000003)  returns 0x00 (0000ms, 9500ms total)
T35D8 6067:209 JLINK_ReadReg(R0)  returns 0x00000000 (0000ms, 9500ms total)
T35D8 6067:210 JLINK_WriteReg(R0, 0x08004000)  returns 0x00 (0000ms, 9500ms total)
T35D8 6067:210 JLINK_WriteReg(R1, 0x00004000)  returns 0x00 (0000ms, 9500ms total)
T35D8 6067:210 JLINK_WriteReg(R2, 0x000000FF)  returns 0x00 (0000ms, 9500ms total)
T35D8 6067:210 JLINK_WriteReg(R3, 0x00000000)  returns 0x00 (0000ms, 9500ms total)
T35D8 6067:210 JLINK_WriteReg(R4, 0x00000000)  returns 0x00 (0000ms, 9500ms total)
T35D8 6067:210 JLINK_WriteReg(R5, 0x00000000)  returns 0x00 (0000ms, 9500ms total)
T35D8 6067:210 JLINK_WriteReg(R6, 0x00000000)  returns 0x00 (0000ms, 9500ms total)
T35D8 6067:210 JLINK_WriteReg(R7, 0x00000000)  returns 0x00 (0000ms, 9500ms total)
T35D8 6067:210 JLINK_WriteReg(R8, 0x00000000)  returns 0x00 (0000ms, 9500ms total)
T35D8 6067:210 JLINK_WriteReg(R9, 0x20000194)  returns 0x00 (0000ms, 9500ms total)
T35D8 6067:210 JLINK_WriteReg(R10, 0x00000000)  returns 0x00 (0000ms, 9500ms total)
T35D8 6067:210 JLINK_WriteReg(R11, 0x00000000)  returns 0x00 (0000ms, 9500ms total)
T35D8 6067:210 JLINK_WriteReg(R12, 0x00000000)  returns 0x00 (0000ms, 9500ms total)
T35D8 6067:210 JLINK_WriteReg(R13 (SP), 0x20000800)  returns 0x00 (0000ms, 9500ms total)
T35D8 6067:210 JLINK_WriteReg(R14, 0x20000001)  returns 0x00 (0000ms, 9500ms total)
T35D8 6067:210 JLINK_WriteReg(R15 (PC), 0x20000020)  returns 0x00 (0000ms, 9500ms total)
T35D8 6067:211 JLINK_WriteReg(XPSR, 0x01000000)  returns 0x00 (0000ms, 9501ms total)
T35D8 6067:211 JLINK_WriteReg(MSP, 0x20000800)  returns 0x00 (0000ms, 9501ms total)
T35D8 6067:211 JLINK_WriteReg(PSP, 0x20000800)  returns 0x00 (0000ms, 9501ms total)
T35D8 6067:211 JLINK_WriteReg(CFBP, 0x00000000)  returns 0x00 (0000ms, 9501ms total)
T35D8 6067:211 JLINK_SetBPEx(Addr = 0x20000000, Type = 0xFFFFFFF2)  returns 0x00000004 (0000ms, 9501ms total)
T35D8 6067:211 JLINK_Go() (0005ms, 9506ms total)
T35D8 6067:216 JLINK_IsHalted() -- CPU_ReadMem(2 bytes @ 0x20000000)  returns TRUE (0011ms, 9517ms total)
T35D8 6067:227 JLINK_ReadReg(R15 (PC))  returns 0x20000000 (0000ms, 9506ms total)
T35D8 6067:227 JLINK_ClrBPEx(BPHandle = 0x00000004)  returns 0x00 (0000ms, 9506ms total)
T35D8 6067:227 JLINK_ReadReg(R0)  returns 0x00000001 (0000ms, 9506ms total)
T35D8 6067:227 JLINK_WriteReg(R0, 0x08004000)  returns 0x00 (0000ms, 9506ms total)
T35D8 6067:227 JLINK_WriteReg(R1, 0x00004000)  returns 0x00 (0001ms, 9507ms total)
T35D8 6067:228 JLINK_WriteReg(R2, 0x000000FF)  returns 0x00 (0000ms, 9507ms total)
T35D8 6067:228 JLINK_WriteReg(R3, 0x00000000)  returns 0x00 (0000ms, 9507ms total)
T35D8 6067:228 JLINK_WriteReg(R4, 0x00000000)  returns 0x00 (0000ms, 9507ms total)
T35D8 6067:228 JLINK_WriteReg(R5, 0x00000000)  returns 0x00 (0000ms, 9507ms total)
T35D8 6067:228 JLINK_WriteReg(R6, 0x00000000)  returns 0x00 (0000ms, 9507ms total)
T35D8 6067:228 JLINK_WriteReg(R7, 0x00000000)  returns 0x00 (0000ms, 9507ms total)
T35D8 6067:228 JLINK_WriteReg(R8, 0x00000000)  returns 0x00 (0000ms, 9507ms total)
T35D8 6067:228 JLINK_WriteReg(R9, 0x20000194)  returns 0x00 (0000ms, 9507ms total)
T35D8 6067:228 JLINK_WriteReg(R10, 0x00000000)  returns 0x00 (0000ms, 9507ms total)
T35D8 6067:228 JLINK_WriteReg(R11, 0x00000000)  returns 0x00 (0000ms, 9507ms total)
T35D8 6067:228 JLINK_WriteReg(R12, 0x00000000)  returns 0x00 (0000ms, 9507ms total)
T35D8 6067:228 JLINK_WriteReg(R13 (SP), 0x20000800)  returns 0x00 (0000ms, 9507ms total)
T35D8 6067:228 JLINK_WriteReg(R14, 0x20000001)  returns 0x00 (0000ms, 9507ms total)
T35D8 6067:228 JLINK_WriteReg(R15 (PC), 0x200000D4)  returns 0x00 (0000ms, 9507ms total)
T35D8 6067:228 JLINK_WriteReg(XPSR, 0x01000000)  returns 0x00 (0000ms, 9507ms total)
T35D8 6067:228 JLINK_WriteReg(MSP, 0x20000800)  returns 0x00 (0000ms, 9507ms total)
T35D8 6067:228 JLINK_WriteReg(PSP, 0x20000800)  returns 0x00 (0000ms, 9507ms total)
T35D8 6067:228 JLINK_WriteReg(CFBP, 0x00000000)  returns 0x00 (0000ms, 9507ms total)
T35D8 6067:228 JLINK_SetBPEx(Addr = 0x20000000, Type = 0xFFFFFFF2)  returns 0x00000005 (0000ms, 9507ms total)
T35D8 6067:228 JLINK_Go() (0005ms, 9512ms total)
T35D8 6067:233 JLINK_IsHalted()  returns FALSE (0001ms, 9513ms total)
T35D8 6067:244 JLINK_IsHalted()  returns FALSE (0002ms, 9514ms total)
T35D8 6067:248 JLINK_IsHalted()  returns FALSE (0001ms, 9513ms total)
T35D8 6067:254 JLINK_IsHalted()  returns FALSE (0001ms, 9513ms total)
T35D8 6067:257 JLINK_IsHalted()  returns FALSE (0002ms, 9514ms total)
T35D8 6067:261 JLINK_IsHalted()  returns FALSE (0001ms, 9513ms total)
T35D8 6067:264 JLINK_IsHalted()  returns FALSE (0001ms, 9513ms total)
T35D8 6067:267 JLINK_IsHalted()  returns FALSE (0001ms, 9513ms total)
T35D8 6067:272 JLINK_IsHalted()  returns FALSE (0002ms, 9514ms total)
T35D8 6067:276 JLINK_IsHalted()  returns FALSE (0001ms, 9513ms total)
T35D8 6067:279 JLINK_IsHalted()  returns FALSE (0001ms, 9513ms total)
T35D8 6067:282 JLINK_IsHalted()  returns FALSE (0001ms, 9513ms total)
T35D8 6067:285 JLINK_IsHalted()  returns FALSE (0002ms, 9514ms total)
T35D8 6067:294 JLINK_IsHalted()  returns FALSE (0001ms, 9513ms total)
T35D8 6067:300 JLINK_IsHalted()  returns FALSE (0001ms, 9513ms total)
T35D8 6067:303 JLINK_IsHalted()  returns FALSE (0002ms, 9514ms total)
T35D8 6067:306 JLINK_IsHalted()  returns FALSE (0002ms, 9514ms total)
T35D8 6067:310 JLINK_IsHalted()  returns FALSE (0001ms, 9513ms total)
T35D8 6067:317 JLINK_IsHalted()  returns FALSE (0001ms, 9513ms total)
T35D8 6067:320 JLINK_IsHalted()  returns FALSE (0001ms, 9513ms total)
T35D8 6067:323 JLINK_IsHalted()  returns FALSE (0001ms, 9513ms total)
T35D8 6067:326 JLINK_IsHalted()  returns FALSE (0001ms, 9513ms total)
T35D8 6067:338 JLINK_IsHalted()  returns FALSE (0002ms, 9514ms total)
T35D8 6067:342 JLINK_IsHalted()  returns FALSE (0002ms, 9514ms total)
T35D8 6067:346 JLINK_IsHalted()  returns FALSE (0001ms, 9513ms total)
T35D8 6067:349 JLINK_IsHalted()  returns FALSE (0002ms, 9514ms total)
T35D8 6067:355 JLINK_IsHalted()  returns FALSE (0002ms, 9514ms total)
T35D8 6067:359 JLINK_IsHalted()  returns FALSE (0001ms, 9513ms total)
T35D8 6067:364 JLINK_IsHalted()  returns FALSE (0001ms, 9513ms total)
T35D8 6067:367 JLINK_IsHalted()  returns FALSE (0002ms, 9514ms total)
T35D8 6067:371 JLINK_IsHalted()  returns FALSE (0001ms, 9513ms total)
T35D8 6067:382 JLINK_IsHalted()  returns FALSE (0001ms, 9513ms total)
T35D8 6067:385 JLINK_IsHalted()  returns FALSE (0001ms, 9513ms total)
T35D8 6067:389 JLINK_IsHalted()  returns FALSE (0002ms, 9514ms total)
T35D8 6067:392 JLINK_IsHalted()  returns FALSE (0002ms, 9514ms total)
T35D8 6067:398 JLINK_IsHalted()  returns FALSE (0001ms, 9513ms total)
T35D8 6067:401 JLINK_IsHalted()  returns FALSE (0002ms, 9514ms total)
T35D8 6067:405 JLINK_IsHalted()  returns FALSE (0001ms, 9513ms total)
T35D8 6067:409 JLINK_IsHalted()  returns FALSE (0001ms, 9513ms total)
T35D8 6067:412 JLINK_IsHalted()  returns FALSE (0001ms, 9513ms total)
T35D8 6067:416 JLINK_IsHalted()  returns FALSE (0001ms, 9513ms total)
T35D8 6067:419 JLINK_IsHalted()  returns FALSE (0001ms, 9513ms total)
T35D8 6067:422 JLINK_IsHalted()  returns FALSE (0001ms, 9513ms total)
T35D8 6067:434 JLINK_IsHalted()  returns FALSE (0002ms, 9514ms total)
T35D8 6067:437 JLINK_IsHalted()  returns FALSE (0002ms, 9514ms total)
T35D8 6067:444 JLINK_IsHalted()  returns FALSE (0002ms, 9514ms total)
T35D8 6067:447 JLINK_IsHalted()  returns FALSE (0002ms, 9514ms total)
T35D8 6067:451 JLINK_IsHalted()  returns FALSE (0001ms, 9513ms total)
T35D8 6067:454 JLINK_IsHalted()  returns FALSE (0002ms, 9514ms total)
T35D8 6067:457 JLINK_IsHalted()  returns FALSE (0002ms, 9514ms total)
T35D8 6067:463 JLINK_IsHalted()  returns FALSE (0001ms, 9513ms total)
T35D8 6067:466 JLINK_IsHalted()  returns FALSE (0002ms, 9514ms total)
T35D8 6067:477 JLINK_IsHalted()  returns FALSE (0002ms, 9514ms total)
T35D8 6067:481 JLINK_IsHalted()  returns FALSE (0001ms, 9513ms total)
T35D8 6067:484 JLINK_IsHalted()  returns FALSE (0001ms, 9513ms total)
T35D8 6067:489 JLINK_IsHalted()  returns FALSE (0001ms, 9513ms total)
T35D8 6067:492 JLINK_IsHalted()  returns FALSE (0001ms, 9513ms total)
T35D8 6067:495 JLINK_IsHalted()  returns FALSE (0002ms, 9514ms total)
T35D8 6067:498 JLINK_IsHalted()  returns FALSE (0002ms, 9514ms total)
T35D8 6067:504 JLINK_IsHalted()  returns FALSE (0002ms, 9514ms total)
T35D8 6067:508 JLINK_IsHalted()  returns FALSE (0001ms, 9513ms total)
T35D8 6067:511 JLINK_IsHalted()  returns FALSE (0001ms, 9513ms total)
T35D8 6067:514 JLINK_IsHalted()  returns FALSE (0001ms, 9513ms total)
T35D8 6067:517 JLINK_IsHalted()  returns FALSE (0001ms, 9513ms total)
T35D8 6067:528 JLINK_IsHalted()  returns FALSE (0002ms, 9514ms total)
T35D8 6067:541 JLINK_IsHalted()  returns FALSE (0002ms, 9514ms total)
T35D8 6067:545 JLINK_IsHalted()  returns FALSE (0001ms, 9513ms total)
T35D8 6067:551 JLINK_IsHalted()  returns FALSE (0002ms, 9514ms total)
T35D8 6067:554 JLINK_IsHalted()  returns FALSE (0001ms, 9513ms total)
T35D8 6067:557 JLINK_IsHalted()  returns FALSE (0001ms, 9513ms total)
T35D8 6067:560 JLINK_IsHalted()  returns FALSE (0002ms, 9514ms total)
T35D8 6067:571 JLINK_IsHalted()  returns FALSE (0001ms, 9513ms total)
T35D8 6067:574 JLINK_IsHalted()  returns FALSE (0002ms, 9514ms total)
T35D8 6067:577 JLINK_IsHalted() -- CPU_ReadMem(2 bytes @ 0x20000000)  returns TRUE (0010ms, 9522ms total)
T35D8 6067:587 JLINK_ReadReg(R15 (PC))  returns 0x20000000 (0000ms, 9512ms total)
T35D8 6067:587 JLINK_ClrBPEx(BPHandle = 0x00000005)  returns 0x00 (0000ms, 9512ms total)
T35D8 6067:587 JLINK_ReadReg(R0)  returns 0x00000000 (0000ms, 9512ms total)
T35D8 6067:588 JLINK_WriteReg(R0, 0x00000001)  returns 0x00 (0000ms, 9512ms total)
T35D8 6067:588 JLINK_WriteReg(R1, 0x00004000)  returns 0x00 (0000ms, 9512ms total)
T35D8 6067:588 JLINK_WriteReg(R2, 0x000000FF)  returns 0x00 (0000ms, 9512ms total)
T35D8 6067:588 JLINK_WriteReg(R3, 0x00000000)  returns 0x00 (0000ms, 9512ms total)
T35D8 6067:588 JLINK_WriteReg(R4, 0x00000000)  returns 0x00 (0000ms, 9512ms total)
T35D8 6067:588 JLINK_WriteReg(R5, 0x00000000)  returns 0x00 (0000ms, 9512ms total)
T35D8 6067:588 JLINK_WriteReg(R6, 0x00000000)  returns 0x00 (0000ms, 9512ms total)
T35D8 6067:588 JLINK_WriteReg(R7, 0x00000000)  returns 0x00 (0000ms, 9512ms total)
T35D8 6067:588 JLINK_WriteReg(R8, 0x00000000)  returns 0x00 (0000ms, 9512ms total)
T35D8 6067:588 JLINK_WriteReg(R9, 0x20000194)  returns 0x00 (0000ms, 9512ms total)
T35D8 6067:588 JLINK_WriteReg(R10, 0x00000000)  returns 0x00 (0000ms, 9512ms total)
T35D8 6067:588 JLINK_WriteReg(R11, 0x00000000)  returns 0x00 (0000ms, 9512ms total)
T35D8 6067:588 JLINK_WriteReg(R12, 0x00000000)  returns 0x00 (0000ms, 9512ms total)
T35D8 6067:588 JLINK_WriteReg(R13 (SP), 0x20000800)  returns 0x00 (0000ms, 9512ms total)
T35D8 6067:588 JLINK_WriteReg(R14, 0x20000001)  returns 0x00 (0000ms, 9512ms total)
T35D8 6067:588 JLINK_WriteReg(R15 (PC), 0x2000008C)  returns 0x00 (0000ms, 9512ms total)
T35D8 6067:588 JLINK_WriteReg(XPSR, 0x01000000)  returns 0x00 (0000ms, 9512ms total)
T35D8 6067:588 JLINK_WriteReg(MSP, 0x20000800)  returns 0x00 (0000ms, 9512ms total)
T35D8 6067:589 JLINK_WriteReg(PSP, 0x20000800)  returns 0x00 (0000ms, 9513ms total)
T35D8 6067:589 JLINK_WriteReg(CFBP, 0x00000000)  returns 0x00 (0000ms, 9513ms total)
T35D8 6067:589 JLINK_SetBPEx(Addr = 0x20000000, Type = 0xFFFFFFF2)  returns 0x00000006 (0000ms, 9513ms total)
T35D8 6067:589 JLINK_Go() (0005ms, 9518ms total)
T35D8 6067:594 JLINK_IsHalted() -- CPU_ReadMem(2 bytes @ 0x20000000)  returns TRUE (0010ms, 9528ms total)
T35D8 6067:604 JLINK_ReadReg(R15 (PC))  returns 0x20000000 (0000ms, 9518ms total)
T35D8 6067:604 JLINK_ClrBPEx(BPHandle = 0x00000006)  returns 0x00 (0000ms, 9518ms total)
T35D8 6067:604 JLINK_ReadReg(R0)  returns 0x00000000 (0000ms, 9518ms total)
T35D8 6067:674 JLINK_WriteMem(0x20000000, 0x0198 Bytes, ...) - Data: 00 BE 0A E0 0D 78 2D 06 68 40 08 24 40 00 00 D3 ... -- CPU_WriteMem(408 bytes @ 0x20000000)  returns 0x198 (0016ms, 9534ms total)
T35D8 6067:690 JLINK_WriteReg(R0, 0x08000000)  returns 0x00 (0000ms, 9534ms total)
T35D8 6067:690 JLINK_WriteReg(R1, 0x00B71B00)  returns 0x00 (0000ms, 9534ms total)
T35D8 6067:690 JLINK_WriteReg(R2, 0x00000002)  returns 0x00 (0000ms, 9534ms total)
T35D8 6067:690 JLINK_WriteReg(R3, 0x00000000)  returns 0x00 (0000ms, 9534ms total)
T35D8 6067:690 JLINK_WriteReg(R4, 0x00000000)  returns 0x00 (0000ms, 9534ms total)
T35D8 6067:690 JLINK_WriteReg(R5, 0x00000000)  returns 0x00 (0000ms, 9534ms total)
T35D8 6067:690 JLINK_WriteReg(R6, 0x00000000)  returns 0x00 (0000ms, 9534ms total)
T35D8 6067:690 JLINK_WriteReg(R7, 0x00000000)  returns 0x00 (0000ms, 9534ms total)
T35D8 6067:690 JLINK_WriteReg(R8, 0x00000000)  returns 0x00 (0000ms, 9534ms total)
T35D8 6067:690 JLINK_WriteReg(R9, 0x20000194)  returns 0x00 (0000ms, 9534ms total)
T35D8 6067:690 JLINK_WriteReg(R10, 0x00000000)  returns 0x00 (0000ms, 9534ms total)
T35D8 6067:690 JLINK_WriteReg(R11, 0x00000000)  returns 0x00 (0000ms, 9534ms total)
T35D8 6067:690 JLINK_WriteReg(R12, 0x00000000)  returns 0x00 (0000ms, 9534ms total)
T35D8 6067:690 JLINK_WriteReg(R13 (SP), 0x20000800)  returns 0x00 (0000ms, 9534ms total)
T35D8 6067:690 JLINK_WriteReg(R14, 0x20000001)  returns 0x00 (0000ms, 9534ms total)
T35D8 6067:690 JLINK_WriteReg(R15 (PC), 0x2000005E)  returns 0x00 (0000ms, 9534ms total)
T35D8 6067:690 JLINK_WriteReg(XPSR, 0x01000000)  returns 0x00 (0000ms, 9534ms total)
T35D8 6067:690 JLINK_WriteReg(MSP, 0x20000800)  returns 0x00 (0000ms, 9534ms total)
T35D8 6067:691 JLINK_WriteReg(PSP, 0x20000800)  returns 0x00 (0000ms, 9535ms total)
T35D8 6067:691 JLINK_WriteReg(CFBP, 0x00000000)  returns 0x00 (0000ms, 9535ms total)
T35D8 6067:691 JLINK_SetBPEx(Addr = 0x20000000, Type = 0xFFFFFFF2) -- CPU_ReadMem(4 bytes @ 0x20000000) -- CPU_WriteMem(4 bytes @ 0x20000000) -- CPU_ReadMem(4 bytes @ 0x20000000) -- CPU_WriteMem(4 bytes @ 0x20000000) -- CPU_ReadMem(2 bytes @ 0x20000000)  returns 0x00000007 (0007ms, 9542ms total)
T35D8 6067:698 JLINK_Go() -- CPU_WriteMem(2 bytes @ 0x20000000) (0006ms, 9548ms total)
T35D8 6067:705 JLINK_IsHalted() -- CPU_ReadMem(2 bytes @ 0x20000000)  returns TRUE (0011ms, 9560ms total)
T35D8 6067:716 JLINK_ReadReg(R15 (PC))  returns 0x20000000 (0000ms, 9549ms total)
T35D8 6067:716 JLINK_ClrBPEx(BPHandle = 0x00000007)  returns 0x00 (0000ms, 9549ms total)
T35D8 6067:716 JLINK_ReadReg(R0)  returns 0x00000000 (0000ms, 9549ms total)
T35D8 6067:716 JLINK_WriteMem(0x20000198, 0x0268 Bytes, ...) - Data: 20 29 00 20 9D 01 00 08 A9 19 00 08 31 10 00 08 ... -- CPU_WriteMem(616 bytes @ 0x20000198)  returns 0x268 (0021ms, 9570ms total)
T35D8 6067:737 JLINK_WriteMem(0x20000400, 0x0198 Bytes, ...) - Data: 90 ED 07 0A 00 29 30 EE 80 1A 90 ED 08 0A 31 EE ... -- CPU_WriteMem(408 bytes @ 0x20000400)  returns 0x198 (0014ms, 9584ms total)
T35D8 6067:751 JLINK_WriteReg(R0, 0x08000000)  returns 0x00 (0000ms, 9584ms total)
T35D8 6067:751 JLINK_WriteReg(R1, 0x00000400)  returns 0x00 (0000ms, 9584ms total)
T35D8 6067:751 JLINK_WriteReg(R2, 0x20000198)  returns 0x00 (0000ms, 9584ms total)
T35D8 6067:751 JLINK_WriteReg(R3, 0x00000000)  returns 0x00 (0000ms, 9584ms total)
T35D8 6067:751 JLINK_WriteReg(R4, 0x00000000)  returns 0x00 (0000ms, 9584ms total)
T35D8 6067:751 JLINK_WriteReg(R5, 0x00000000)  returns 0x00 (0000ms, 9584ms total)
T35D8 6067:751 JLINK_WriteReg(R6, 0x00000000)  returns 0x00 (0000ms, 9584ms total)
T35D8 6067:751 JLINK_WriteReg(R7, 0x00000000)  returns 0x00 (0000ms, 9584ms total)
T35D8 6067:751 JLINK_WriteReg(R8, 0x00000000)  returns 0x00 (0000ms, 9584ms total)
T35D8 6067:751 JLINK_WriteReg(R9, 0x20000194)  returns 0x00 (0000ms, 9584ms total)
T35D8 6067:751 JLINK_WriteReg(R10, 0x00000000)  returns 0x00 (0000ms, 9584ms total)
T35D8 6067:751 JLINK_WriteReg(R11, 0x00000000)  returns 0x00 (0000ms, 9584ms total)
T35D8 6067:751 JLINK_WriteReg(R12, 0x00000000)  returns 0x00 (0001ms, 9585ms total)
T35D8 6067:752 JLINK_WriteReg(R13 (SP), 0x20000800)  returns 0x00 (0000ms, 9585ms total)
T35D8 6067:752 JLINK_WriteReg(R14, 0x20000001)  returns 0x00 (0000ms, 9585ms total)
T35D8 6067:752 JLINK_WriteReg(R15 (PC), 0x20000120)  returns 0x00 (0000ms, 9585ms total)
T35D8 6067:752 JLINK_WriteReg(XPSR, 0x01000000)  returns 0x00 (0000ms, 9585ms total)
T35D8 6067:752 JLINK_WriteReg(MSP, 0x20000800)  returns 0x00 (0000ms, 9585ms total)
T35D8 6067:752 JLINK_WriteReg(PSP, 0x20000800)  returns 0x00 (0000ms, 9585ms total)
T35D8 6067:752 JLINK_WriteReg(CFBP, 0x00000000)  returns 0x00 (0000ms, 9585ms total)
T35D8 6067:752 JLINK_SetBPEx(Addr = 0x20000000, Type = 0xFFFFFFF2)  returns 0x00000008 (0000ms, 9585ms total)
T35D8 6067:752 JLINK_Go() (0005ms, 9590ms total)
T35D8 6067:757 JLINK_IsHalted()  returns FALSE (0001ms, 9591ms total)
T35D8 6067:773 JLINK_IsHalted() -- CPU_ReadMem(2 bytes @ 0x20000000)  returns TRUE (0011ms, 9601ms total)
T35D8 6067:784 JLINK_ReadReg(R15 (PC))  returns 0x20000000 (0000ms, 9590ms total)
T35D8 6067:784 JLINK_ClrBPEx(BPHandle = 0x00000008)  returns 0x00 (0000ms, 9590ms total)
T35D8 6067:784 JLINK_ReadReg(R0)  returns 0x00000000 (0000ms, 9590ms total)
T35D8 6067:785 JLINK_WriteMem(0x20000198, 0x0268 Bytes, ...) - Data: 21 F0 00 41 00 94 4F F0 00 0B 23 F0 00 43 50 EA ... -- CPU_WriteMem(616 bytes @ 0x20000198)  returns 0x268 (0021ms, 9611ms total)
T35D8 6067:806 JLINK_WriteMem(0x20000400, 0x0198 Bytes, ...) - Data: 1C 46 4F F0 00 43 52 42 63 EB 04 03 8B 42 08 BF ... -- CPU_WriteMem(408 bytes @ 0x20000400)  returns 0x198 (0014ms, 9625ms total)
T35D8 6067:820 JLINK_WriteReg(R0, 0x08000400)  returns 0x00 (0000ms, 9625ms total)
T35D8 6067:820 JLINK_WriteReg(R1, 0x00000400)  returns 0x00 (0000ms, 9625ms total)
T35D8 6067:820 JLINK_WriteReg(R2, 0x20000198)  returns 0x00 (0000ms, 9625ms total)
T35D8 6067:820 JLINK_WriteReg(R3, 0x00000000)  returns 0x00 (0000ms, 9625ms total)
T35D8 6067:820 JLINK_WriteReg(R4, 0x00000000)  returns 0x00 (0000ms, 9625ms total)
T35D8 6067:820 JLINK_WriteReg(R5, 0x00000000)  returns 0x00 (0000ms, 9625ms total)
T35D8 6067:820 JLINK_WriteReg(R6, 0x00000000)  returns 0x00 (0000ms, 9625ms total)
T35D8 6067:820 JLINK_WriteReg(R7, 0x00000000)  returns 0x00 (0000ms, 9625ms total)
T35D8 6067:820 JLINK_WriteReg(R8, 0x00000000)  returns 0x00 (0000ms, 9625ms total)
T35D8 6067:820 JLINK_WriteReg(R9, 0x20000194)  returns 0x00 (0000ms, 9625ms total)
T35D8 6067:820 JLINK_WriteReg(R10, 0x00000000)  returns 0x00 (0000ms, 9625ms total)
T35D8 6067:820 JLINK_WriteReg(R11, 0x00000000)  returns 0x00 (0000ms, 9625ms total)
T35D8 6067:820 JLINK_WriteReg(R12, 0x00000000)  returns 0x00 (0000ms, 9625ms total)
T35D8 6067:820 JLINK_WriteReg(R13 (SP), 0x20000800)  returns 0x00 (0000ms, 9625ms total)
T35D8 6067:820 JLINK_WriteReg(R14, 0x20000001)  returns 0x00 (0000ms, 9625ms total)
T35D8 6067:820 JLINK_WriteReg(R15 (PC), 0x20000120)  returns 0x00 (0000ms, 9625ms total)
T35D8 6067:820 JLINK_WriteReg(XPSR, 0x01000000)  returns 0x00 (0000ms, 9625ms total)
T35D8 6067:820 JLINK_WriteReg(MSP, 0x20000800)  returns 0x00 (0000ms, 9625ms total)
T35D8 6067:821 JLINK_WriteReg(PSP, 0x20000800)  returns 0x00 (0000ms, 9626ms total)
T35D8 6067:821 JLINK_WriteReg(CFBP, 0x00000000)  returns 0x00 (0000ms, 9626ms total)
T35D8 6067:821 JLINK_SetBPEx(Addr = 0x20000000, Type = 0xFFFFFFF2)  returns 0x00000009 (0000ms, 9626ms total)
T35D8 6067:821 JLINK_Go() (0005ms, 9631ms total)
T35D8 6067:826 JLINK_IsHalted()  returns FALSE (0002ms, 9633ms total)
T35D8 6067:836 JLINK_IsHalted() -- CPU_ReadMem(2 bytes @ 0x20000000)  returns TRUE (0010ms, 9641ms total)
T35D8 6067:846 JLINK_ReadReg(R15 (PC))  returns 0x20000000 (0000ms, 9631ms total)
T35D8 6067:846 JLINK_ClrBPEx(BPHandle = 0x00000009)  returns 0x00 (0000ms, 9631ms total)
T35D8 6067:846 JLINK_ReadReg(R0)  returns 0x00000000 (0000ms, 9631ms total)
T35D8 6067:847 JLINK_WriteMem(0x20000198, 0x0268 Bytes, ...) - Data: 10 BC 70 47 40 1C 49 00 08 BF 20 F0 01 00 10 BC ... -- CPU_WriteMem(616 bytes @ 0x20000198)  returns 0x268 (0021ms, 9652ms total)
T35D8 6067:868 JLINK_WriteMem(0x20000400, 0x0198 Bytes, ...) - Data: FD F7 FF C0 F0 B5 04 46 0D 46 00 20 00 21 09 2D ... -- CPU_WriteMem(408 bytes @ 0x20000400)  returns 0x198 (0014ms, 9666ms total)
T35D8 6067:882 JLINK_WriteReg(R0, 0x08000800)  returns 0x00 (0000ms, 9666ms total)
T35D8 6067:882 JLINK_WriteReg(R1, 0x00000400)  returns 0x00 (0001ms, 9667ms total)
T35D8 6067:883 JLINK_WriteReg(R2, 0x20000198)  returns 0x00 (0000ms, 9667ms total)
T35D8 6067:883 JLINK_WriteReg(R3, 0x00000000)  returns 0x00 (0000ms, 9667ms total)
T35D8 6067:883 JLINK_WriteReg(R4, 0x00000000)  returns 0x00 (0000ms, 9667ms total)
T35D8 6067:883 JLINK_WriteReg(R5, 0x00000000)  returns 0x00 (0000ms, 9667ms total)
T35D8 6067:883 JLINK_WriteReg(R6, 0x00000000)  returns 0x00 (0000ms, 9667ms total)
T35D8 6067:883 JLINK_WriteReg(R7, 0x00000000)  returns 0x00 (0000ms, 9667ms total)
T35D8 6067:883 JLINK_WriteReg(R8, 0x00000000)  returns 0x00 (0000ms, 9667ms total)
T35D8 6067:883 JLINK_WriteReg(R9, 0x20000194)  returns 0x00 (0000ms, 9667ms total)
T35D8 6067:883 JLINK_WriteReg(R10, 0x00000000)  returns 0x00 (0000ms, 9667ms total)
T35D8 6067:883 JLINK_WriteReg(R11, 0x00000000)  returns 0x00 (0000ms, 9667ms total)
T35D8 6067:883 JLINK_WriteReg(R12, 0x00000000)  returns 0x00 (0000ms, 9667ms total)
T35D8 6067:883 JLINK_WriteReg(R13 (SP), 0x20000800)  returns 0x00 (0000ms, 9667ms total)
T35D8 6067:883 JLINK_WriteReg(R14, 0x20000001)  returns 0x00 (0000ms, 9667ms total)
T35D8 6067:883 JLINK_WriteReg(R15 (PC), 0x20000120)  returns 0x00 (0000ms, 9667ms total)
T35D8 6067:883 JLINK_WriteReg(XPSR, 0x01000000)  returns 0x00 (0000ms, 9667ms total)
T35D8 6067:883 JLINK_WriteReg(MSP, 0x20000800)  returns 0x00 (0000ms, 9667ms total)
T35D8 6067:883 JLINK_WriteReg(PSP, 0x20000800)  returns 0x00 (0000ms, 9667ms total)
T35D8 6067:883 JLINK_WriteReg(CFBP, 0x00000000)  returns 0x00 (0000ms, 9667ms total)
T35D8 6067:883 JLINK_SetBPEx(Addr = 0x20000000, Type = 0xFFFFFFF2)  returns 0x0000000A (0000ms, 9667ms total)
T35D8 6067:883 JLINK_Go() (0006ms, 9673ms total)
T35D8 6067:889 JLINK_IsHalted()  returns FALSE (0002ms, 9675ms total)
T35D8 6067:907 JLINK_IsHalted() -- CPU_ReadMem(2 bytes @ 0x20000000)  returns TRUE (0011ms, 9684ms total)
T35D8 6067:918 JLINK_ReadReg(R15 (PC))  returns 0x20000000 (0000ms, 9673ms total)
T35D8 6067:918 JLINK_ClrBPEx(BPHandle = 0x0000000A)  returns 0x00 (0000ms, 9673ms total)
T35D8 6067:918 JLINK_ReadReg(R0)  returns 0x00000000 (0000ms, 9673ms total)
T35D8 6067:920 JLINK_WriteMem(0x20000198, 0x0268 Bytes, ...) - Data: 27 20 8D F8 00 00 02 20 8D F8 02 00 01 20 8D F8 ... -- CPU_WriteMem(616 bytes @ 0x20000198)  returns 0x268 (0020ms, 9693ms total)
T35D8 6067:940 JLINK_WriteMem(0x20000400, 0x0198 Bytes, ...) - Data: C5 6A 2C 43 05 6B 2C 43 21 43 04 68 A4 00 A4 F1 ... -- CPU_WriteMem(408 bytes @ 0x20000400)  returns 0x198 (0014ms, 9707ms total)
T35D8 6067:954 JLINK_WriteReg(R0, 0x08000C00)  returns 0x00 (0000ms, 9707ms total)
T35D8 6067:954 JLINK_WriteReg(R1, 0x00000400)  returns 0x00 (0000ms, 9707ms total)
T35D8 6067:954 JLINK_WriteReg(R2, 0x20000198)  returns 0x00 (0000ms, 9707ms total)
T35D8 6067:954 JLINK_WriteReg(R3, 0x00000000)  returns 0x00 (0000ms, 9707ms total)
T35D8 6067:954 JLINK_WriteReg(R4, 0x00000000)  returns 0x00 (0000ms, 9707ms total)
T35D8 6067:954 JLINK_WriteReg(R5, 0x00000000)  returns 0x00 (0000ms, 9707ms total)
T35D8 6067:954 JLINK_WriteReg(R6, 0x00000000)  returns 0x00 (0001ms, 9708ms total)
T35D8 6067:955 JLINK_WriteReg(R7, 0x00000000)  returns 0x00 (0000ms, 9708ms total)
T35D8 6067:955 JLINK_WriteReg(R8, 0x00000000)  returns 0x00 (0000ms, 9708ms total)
T35D8 6067:955 JLINK_WriteReg(R9, 0x20000194)  returns 0x00 (0000ms, 9708ms total)
T35D8 6067:955 JLINK_WriteReg(R10, 0x00000000)  returns 0x00 (0000ms, 9708ms total)
T35D8 6067:955 JLINK_WriteReg(R11, 0x00000000)  returns 0x00 (0000ms, 9708ms total)
T35D8 6067:955 JLINK_WriteReg(R12, 0x00000000)  returns 0x00 (0000ms, 9708ms total)
T35D8 6067:955 JLINK_WriteReg(R13 (SP), 0x20000800)  returns 0x00 (0000ms, 9708ms total)
T35D8 6067:955 JLINK_WriteReg(R14, 0x20000001)  returns 0x00 (0000ms, 9708ms total)
T35D8 6067:955 JLINK_WriteReg(R15 (PC), 0x20000120)  returns 0x00 (0000ms, 9708ms total)
T35D8 6067:955 JLINK_WriteReg(XPSR, 0x01000000)  returns 0x00 (0000ms, 9708ms total)
T35D8 6067:955 JLINK_WriteReg(MSP, 0x20000800)  returns 0x00 (0000ms, 9708ms total)
T35D8 6067:955 JLINK_WriteReg(PSP, 0x20000800)  returns 0x00 (0000ms, 9708ms total)
T35D8 6067:955 JLINK_WriteReg(CFBP, 0x00000000)  returns 0x00 (0000ms, 9708ms total)
T35D8 6067:955 JLINK_SetBPEx(Addr = 0x20000000, Type = 0xFFFFFFF2)  returns 0x0000000B (0000ms, 9708ms total)
T35D8 6067:955 JLINK_Go() (0005ms, 9713ms total)
T35D8 6067:960 JLINK_IsHalted()  returns FALSE (0002ms, 9715ms total)
T35D8 6067:968 JLINK_IsHalted() -- CPU_ReadMem(2 bytes @ 0x20000000)  returns TRUE (0011ms, 9724ms total)
T35D8 6067:979 JLINK_ReadReg(R15 (PC))  returns 0x20000000 (0000ms, 9713ms total)
T35D8 6067:979 JLINK_ClrBPEx(BPHandle = 0x0000000B)  returns 0x00 (0000ms, 9713ms total)
T35D8 6067:979 JLINK_ReadReg(R0)  returns 0x00000000 (0000ms, 9713ms total)
T35D8 6067:979 JLINK_WriteMem(0x20000198, 0x0268 Bytes, ...) - Data: 0F 26 BE 40 B5 43 CF 10 00 F1 20 06 46 F8 27 50 ... -- CPU_WriteMem(616 bytes @ 0x20000198)  returns 0x268 (0021ms, 9734ms total)
T35D8 6068:000 JLINK_WriteMem(0x20000400, 0x0198 Bytes, ...) - Data: 80 FA 40 21 3C 48 01 F0 73 FA 01 21 44 20 00 F0 ... -- CPU_WriteMem(408 bytes @ 0x20000400)  returns 0x198 (0015ms, 9749ms total)
T35D8 6068:015 JLINK_WriteReg(R0, 0x08001000)  returns 0x00 (0000ms, 9749ms total)
T35D8 6068:015 JLINK_WriteReg(R1, 0x00000400)  returns 0x00 (0000ms, 9749ms total)
T35D8 6068:015 JLINK_WriteReg(R2, 0x20000198)  returns 0x00 (0000ms, 9749ms total)
T35D8 6068:015 JLINK_WriteReg(R3, 0x00000000)  returns 0x00 (0000ms, 9749ms total)
T35D8 6068:015 JLINK_WriteReg(R4, 0x00000000)  returns 0x00 (0000ms, 9749ms total)
T35D8 6068:015 JLINK_WriteReg(R5, 0x00000000)  returns 0x00 (0000ms, 9749ms total)
T35D8 6068:015 JLINK_WriteReg(R6, 0x00000000)  returns 0x00 (0000ms, 9749ms total)
T35D8 6068:015 JLINK_WriteReg(R7, 0x00000000)  returns 0x00 (0000ms, 9749ms total)
T35D8 6068:015 JLINK_WriteReg(R8, 0x00000000)  returns 0x00 (0000ms, 9749ms total)
T35D8 6068:015 JLINK_WriteReg(R9, 0x20000194)  returns 0x00 (0000ms, 9749ms total)
T35D8 6068:015 JLINK_WriteReg(R10, 0x00000000)  returns 0x00 (0000ms, 9749ms total)
T35D8 6068:015 JLINK_WriteReg(R11, 0x00000000)  returns 0x00 (0000ms, 9749ms total)
T35D8 6068:015 JLINK_WriteReg(R12, 0x00000000)  returns 0x00 (0000ms, 9749ms total)
T35D8 6068:015 JLINK_WriteReg(R13 (SP), 0x20000800)  returns 0x00 (0000ms, 9749ms total)
T35D8 6068:015 JLINK_WriteReg(R14, 0x20000001)  returns 0x00 (0000ms, 9749ms total)
T35D8 6068:015 JLINK_WriteReg(R15 (PC), 0x20000120)  returns 0x00 (0000ms, 9749ms total)
T35D8 6068:015 JLINK_WriteReg(XPSR, 0x01000000)  returns 0x00 (0000ms, 9749ms total)
T35D8 6068:015 JLINK_WriteReg(MSP, 0x20000800)  returns 0x00 (0000ms, 9749ms total)
T35D8 6068:015 JLINK_WriteReg(PSP, 0x20000800)  returns 0x00 (0000ms, 9749ms total)
T35D8 6068:015 JLINK_WriteReg(CFBP, 0x00000000)  returns 0x00 (0000ms, 9749ms total)
T35D8 6068:015 JLINK_SetBPEx(Addr = 0x20000000, Type = 0xFFFFFFF2)  returns 0x0000000C (0000ms, 9749ms total)
T35D8 6068:015 JLINK_Go() (0005ms, 9754ms total)
T35D8 6068:020 JLINK_IsHalted()  returns FALSE (0002ms, 9756ms total)
T35D8 6068:029 JLINK_IsHalted() -- CPU_ReadMem(2 bytes @ 0x20000000)  returns TRUE (0010ms, 9764ms total)
T35D8 6068:040 JLINK_ReadReg(R15 (PC))  returns 0x20000000 (0000ms, 9754ms total)
T35D8 6068:040 JLINK_ClrBPEx(BPHandle = 0x0000000C)  returns 0x00 (0000ms, 9754ms total)
T35D8 6068:040 JLINK_ReadReg(R0)  returns 0x00000000 (0000ms, 9754ms total)
T35D8 6068:041 JLINK_WriteMem(0x20000198, 0x0268 Bytes, ...) - Data: 4F F6 80 70 00 90 02 20 8D F8 04 00 00 20 8D F8 ... -- CPU_WriteMem(616 bytes @ 0x20000198)  returns 0x268 (0021ms, 9775ms total)
T35D8 6068:062 JLINK_WriteMem(0x20000400, 0x0198 Bytes, ...) - Data: 0C 20 01 F0 B5 FA 16 20 01 F0 B2 FA 24 20 01 F0 ... -- CPU_WriteMem(408 bytes @ 0x20000400)  returns 0x198 (0014ms, 9789ms total)
T35D8 6068:076 JLINK_WriteReg(R0, 0x08001400)  returns 0x00 (0000ms, 9789ms total)
T35D8 6068:076 JLINK_WriteReg(R1, 0x00000400)  returns 0x00 (0000ms, 9789ms total)
T35D8 6068:076 JLINK_WriteReg(R2, 0x20000198)  returns 0x00 (0000ms, 9789ms total)
T35D8 6068:076 JLINK_WriteReg(R3, 0x00000000)  returns 0x00 (0000ms, 9789ms total)
T35D8 6068:076 JLINK_WriteReg(R4, 0x00000000)  returns 0x00 (0000ms, 9789ms total)
T35D8 6068:076 JLINK_WriteReg(R5, 0x00000000)  returns 0x00 (0000ms, 9789ms total)
T35D8 6068:076 JLINK_WriteReg(R6, 0x00000000)  returns 0x00 (0000ms, 9789ms total)
T35D8 6068:076 JLINK_WriteReg(R7, 0x00000000)  returns 0x00 (0000ms, 9789ms total)
T35D8 6068:076 JLINK_WriteReg(R8, 0x00000000)  returns 0x00 (0000ms, 9789ms total)
T35D8 6068:076 JLINK_WriteReg(R9, 0x20000194)  returns 0x00 (0000ms, 9789ms total)
T35D8 6068:076 JLINK_WriteReg(R10, 0x00000000)  returns 0x00 (0001ms, 9790ms total)
T35D8 6068:077 JLINK_WriteReg(R11, 0x00000000)  returns 0x00 (0000ms, 9790ms total)
T35D8 6068:077 JLINK_WriteReg(R12, 0x00000000)  returns 0x00 (0000ms, 9790ms total)
T35D8 6068:077 JLINK_WriteReg(R13 (SP), 0x20000800)  returns 0x00 (0000ms, 9790ms total)
T35D8 6068:077 JLINK_WriteReg(R14, 0x20000001)  returns 0x00 (0000ms, 9790ms total)
T35D8 6068:077 JLINK_WriteReg(R15 (PC), 0x20000120)  returns 0x00 (0000ms, 9790ms total)
T35D8 6068:077 JLINK_WriteReg(XPSR, 0x01000000)  returns 0x00 (0000ms, 9790ms total)
T35D8 6068:077 JLINK_WriteReg(MSP, 0x20000800)  returns 0x00 (0000ms, 9790ms total)
T35D8 6068:077 JLINK_WriteReg(PSP, 0x20000800)  returns 0x00 (0000ms, 9790ms total)
T35D8 6068:077 JLINK_WriteReg(CFBP, 0x00000000)  returns 0x00 (0000ms, 9790ms total)
T35D8 6068:077 JLINK_SetBPEx(Addr = 0x20000000, Type = 0xFFFFFFF2)  returns 0x0000000D (0000ms, 9790ms total)
T35D8 6068:077 JLINK_Go() (0005ms, 9795ms total)
T35D8 6068:082 JLINK_IsHalted()  returns FALSE (0002ms, 9797ms total)
T35D8 6068:092 JLINK_IsHalted() -- CPU_ReadMem(2 bytes @ 0x20000000)  returns TRUE (0011ms, 9806ms total)
T35D8 6068:103 JLINK_ReadReg(R15 (PC))  returns 0x20000000 (0000ms, 9795ms total)
T35D8 6068:103 JLINK_ClrBPEx(BPHandle = 0x0000000D)  returns 0x00 (0000ms, 9795ms total)
T35D8 6068:103 JLINK_ReadReg(R0)  returns 0x00000000 (0000ms, 9795ms total)
T35D8 6068:104 JLINK_WriteMem(0x20000198, 0x0268 Bytes, ...) - Data: 3F 20 01 F0 E9 F9 D1 20 01 F0 E2 F9 02 20 01 F0 ... -- CPU_WriteMem(616 bytes @ 0x20000198)  returns 0x268 (0021ms, 9816ms total)
T35D8 6068:125 JLINK_WriteMem(0x20000400, 0x0198 Bytes, ...) - Data: BD F8 38 A1 38 A0 01 F0 B9 F8 3C A1 3E A0 01 F0 ... -- CPU_WriteMem(408 bytes @ 0x20000400)  returns 0x198 (0014ms, 9830ms total)
T35D8 6068:139 JLINK_WriteReg(R0, 0x08001800)  returns 0x00 (0000ms, 9830ms total)
T35D8 6068:139 JLINK_WriteReg(R1, 0x00000400)  returns 0x00 (0000ms, 9830ms total)
T35D8 6068:139 JLINK_WriteReg(R2, 0x20000198)  returns 0x00 (0000ms, 9830ms total)
T35D8 6068:139 JLINK_WriteReg(R3, 0x00000000)  returns 0x00 (0000ms, 9830ms total)
T35D8 6068:139 JLINK_WriteReg(R4, 0x00000000)  returns 0x00 (0000ms, 9830ms total)
T35D8 6068:139 JLINK_WriteReg(R5, 0x00000000)  returns 0x00 (0000ms, 9830ms total)
T35D8 6068:139 JLINK_WriteReg(R6, 0x00000000)  returns 0x00 (0000ms, 9830ms total)
T35D8 6068:139 JLINK_WriteReg(R7, 0x00000000)  returns 0x00 (0000ms, 9830ms total)
T35D8 6068:139 JLINK_WriteReg(R8, 0x00000000)  returns 0x00 (0000ms, 9830ms total)
T35D8 6068:139 JLINK_WriteReg(R9, 0x20000194)  returns 0x00 (0000ms, 9830ms total)
T35D8 6068:139 JLINK_WriteReg(R10, 0x00000000)  returns 0x00 (0000ms, 9830ms total)
T35D8 6068:139 JLINK_WriteReg(R11, 0x00000000)  returns 0x00 (0000ms, 9830ms total)
T35D8 6068:139 JLINK_WriteReg(R12, 0x00000000)  returns 0x00 (0000ms, 9830ms total)
T35D8 6068:139 JLINK_WriteReg(R13 (SP), 0x20000800)  returns 0x00 (0000ms, 9830ms total)
T35D8 6068:139 JLINK_WriteReg(R14, 0x20000001)  returns 0x00 (0000ms, 9830ms total)
T35D8 6068:139 JLINK_WriteReg(R15 (PC), 0x20000120)  returns 0x00 (0000ms, 9830ms total)
T35D8 6068:139 JLINK_WriteReg(XPSR, 0x01000000)  returns 0x00 (0000ms, 9830ms total)
T35D8 6068:139 JLINK_WriteReg(MSP, 0x20000800)  returns 0x00 (0000ms, 9830ms total)
T35D8 6068:140 JLINK_WriteReg(PSP, 0x20000800)  returns 0x00 (0000ms, 9831ms total)
T35D8 6068:140 JLINK_WriteReg(CFBP, 0x00000000)  returns 0x00 (0000ms, 9831ms total)
T35D8 6068:140 JLINK_SetBPEx(Addr = 0x20000000, Type = 0xFFFFFFF2)  returns 0x0000000E (0000ms, 9831ms total)
T35D8 6068:140 JLINK_Go() (0005ms, 9836ms total)
T35D8 6068:145 JLINK_IsHalted()  returns FALSE (0001ms, 9837ms total)
T35D8 6068:157 JLINK_IsHalted() -- CPU_ReadMem(2 bytes @ 0x20000000)  returns TRUE (0011ms, 9847ms total)
T35D8 6068:168 JLINK_ReadReg(R15 (PC))  returns 0x20000000 (0000ms, 9836ms total)
T35D8 6068:168 JLINK_ClrBPEx(BPHandle = 0x0000000E)  returns 0x00 (0000ms, 9836ms total)
T35D8 6068:168 JLINK_ReadReg(R0)  returns 0x00000000 (0000ms, 9836ms total)
T35D8 6068:169 JLINK_WriteMem(0x20000198, 0x0268 Bytes, ...) - Data: 01 4B 1A 60 70 47 00 00 30 38 02 40 29 B1 06 4A ... -- CPU_WriteMem(616 bytes @ 0x20000198)  returns 0x268 (0022ms, 9858ms total)
T35D8 6068:191 JLINK_WriteMem(0x20000400, 0x0198 Bytes, ...) - Data: 54 65 73 74 21 21 21 0D 0A 00 00 00 70 47 00 00 ... -- CPU_WriteMem(408 bytes @ 0x20000400)  returns 0x198 (0013ms, 9871ms total)
T35D8 6068:204 JLINK_WriteReg(R0, 0x08001C00)  returns 0x00 (0000ms, 9871ms total)
T35D8 6068:205 JLINK_WriteReg(R1, 0x00000400)  returns 0x00 (0000ms, 9872ms total)
